
T0E34 000:389 SEGGER J-Link V4.80g Log File (0001ms, 0264ms total)
T0E34 000:389 DLL Compiled: Feb 13 2014 20:50:02 (0001ms, 0264ms total)
T0E34 000:389 Logging started @ 2017-03-13 16:20 (0001ms, 0264ms total)
T0E34 000:390 JLINK_SetWarnOutHandler(...) (0000ms, 0264ms total)
T0E34 000:390 JLINK_OpenEx(...)
Firmware: J-Link V9 compiled Jan 29 2015 11:26:22
Hardware: V9.10
S/N: 59106098
Feature(s): GDB, RDI, FlashDL, FlashBP, JFlash  returns O.K. (0260ms, 0524ms total)
T0E34 000:650 JLINK_SetErrorOutHandler(...) (0000ms, 0524ms total)
T0E34 000:650 JLINK_ExecCommand("ProjectFile = "F:\newPrject\LeakAdhesiveSensor\Project\RVMDK\JLinkSettings.ini"", ...)  returns 0x00 (0001ms, 0525ms total)
T0E34 000:654 JLINK_ExecCommand("Device = STM32F103RF", ...)Device "STM32F103RF" selected (768 KB flash, 96 KB RAM).  returns 0x00 (0002ms, 0527ms total)
T0E34 000:656 JLINK_ExecCommand("DisableConnectionTimeout", ...)  returns 0x01 (0000ms, 0527ms total)
T0E34 000:656 JLINK_GetHardwareVersion()  returns 0x16378 (0000ms, 0527ms total)
T0E34 000:656 JLINK_GetDLLVersion()  returns 48007 (0000ms, 0527ms total)
T0E34 000:656 JLINK_GetFirmwareString(...) (0000ms, 0527ms total)
T0E34 000:662 JLINK_GetDLLVersion()  returns 48007 (0000ms, 0527ms total)
T0E34 000:662 JLINK_GetCompileDateTime() (0000ms, 0527ms total)
T0E34 000:663 JLINK_GetFirmwareString(...) (0000ms, 0527ms total)
T0E34 000:664 JLINK_GetHardwareVersion()  returns 0x16378 (0000ms, 0527ms total)
T0E34 000:667 JLINK_TIF_Select(JLINKARM_TIF_SWD)  returns 0x00 (0001ms, 0528ms total)
T0E34 000:668 JLINK_SetSpeed(5000) (0000ms, 0528ms total)
T0E34 000:668 JLINK_GetId() >0x108 TIF>Found SWD-DP with ID 0x1BA01477 >0x0D TIF> >0x28 TIF> >0x0D TIF> >0x28 TIF> >0x0D TIF> >0x21 TIF> >0x0D TIF> >0x28 TIF> >0x0D TIF> >0x28 TIF> >0x0D TIF> >0x28 TIF> >0x0D TIF> >0x21 TIF> >0x0D TIF> >0x21 TIF> >0x0D TIF> >0x28 TIF> >0x0D TIF> >0x21 TIF> >0x0D TIF> >0x21 TIF> >0x0D TIF> >0x28 TIF> >0x0D TIF> >0x28 TIF> >0x108 TIF>Found SWD-DP with ID 0x1BA01477 >0x0D TIF> >0x21 TIF> >0x0D TIF> >0x28 TIF> >0x0D TIF> >0x28 TIF> >0x0D TIF> >0x21 TIF> >0x0D TIF> >0x28 TIF>
 >0x0D TIF> >0x21 TIF> >0x0D TIF> >0x21 TIF> >0x0D TIF> >0x21 TIF> >0x0D TIF> >0x21 TIF> >0x0D TIF> >0x28 TIF> >0x0D TIF> >0x28 TIF> >0x0D TIF> >0x21 TIF> >0x0D TIF> >0x28 TIF> >0x0D TIF> >0x28 TIF> >0x0D TIF> >0x28 TIF> >0x0D TIF> >0x21 TIF> >0x0D TIF> >0x21 TIF> >0x0D TIF> >0x28 TIF> >0x0D TIF> >0x21 TIF> >0x0D TIF> >0x21 TIF>Found Cortex-M3 r1p1, Little endian. -- CPU_WriteMem(4 bytes @ 0xE0002000) -- CPU_ReadMem(4 bytes @ 0xE000EDF0) -- CPU_WriteMem(4 bytes @ 0xE000EDF0)
 -- CPU_ReadMem(4 bytes @ 0xE0002000)FPUnit: 6 code (BP) slots and 2 literal slots -- CPU_ReadMem(4 bytes @ 0xE000EDFC) -- CPU_WriteMem(4 bytes @ 0xE000EDFC) -- CPU_ReadMem(4 bytes @ 0xE0001000) -- CPU_WriteMem(4 bytes @ 0xE0001000) -- CPU_ReadMem(4 bytes @ 0xE00FF010)TPIU fitted. -- CPU_ReadMem(4 bytes @ 0xE00FF014)ETM fitted. -- CPU_ReadMem(4 bytes @ 0xE00FF018) >0x0D TIF> >0x21 TIF>  returns 0x1BA01477 (0031ms, 0559ms total)
T0E34 000:699 JLINK_GetDeviceFamily()  returns 3 (0000ms, 0559ms total)
T0E34 000:700 JLINK_ReadMem (0xE00FFFF0, 0x0010 Bytes, ...) -- CPU is running -- CPU_ReadMem(16 bytes @ 0xE00FFFF0) -- Data:  0D 00 00 00 10 00 00 00 05 00 00 00 B1 00 00 00  returns 0x00 (0001ms, 0560ms total)
T0E34 000:701 JLINK_ReadMem (0xE00FFFD0, 0x0020 Bytes, ...) -- CPU is running -- CPU_ReadMem(32 bytes @ 0xE00FFFD0) -- Data:  00 00 00 00 00 00 00 00 00 00 00 00 00 00 00 00 ...  returns 0x00 (0000ms, 0560ms total)
T0E34 000:701 JLINK_ReadMem (0xE00FF000, 0x0018 Bytes, ...) -- CPU is running -- CPU_ReadMem(24 bytes @ 0xE00FF000) -- Data:  03 F0 F0 FF 03 20 F0 FF 03 30 F0 FF 03 10 F0 FF ...  returns 0x00 (0001ms, 0561ms total)
T0E34 000:702 JLINK_ReadMemU32(0xE000ED00, 0x0001 Items, ...) -- CPU is running -- CPU_ReadMem(4 bytes @ 0xE000ED00) -- Data:  31 C2 1F 41  returns 0x01 (0000ms, 0561ms total)
T0E34 000:702 JLINK_SetResetType(JLINKARM_RESET_TYPE_NORMAL)  returns JLINKARM_RESET_TYPE_NORMAL (0000ms, 0561ms total)
T0E34 000:702 JLINK_Reset() -- CPU is running -- CPU_WriteMem(4 bytes @ 0xE000EDF0) -- CPU is running -- CPU_WriteMem(4 bytes @ 0xE000EDFC) >0x35 TIF> -- CPU is running -- CPU_WriteMem(4 bytes @ 0xE000ED0C) -- CPU is running -- CPU_ReadMem(4 bytes @ 0xE000EDF0) -- CPU is running -- CPU_ReadMem(4 bytes @ 0xE000EDF0) -- CPU is running -- CPU_WriteMem(4 bytes @ 0xE000EDF0) -- CPU is running -- CPU_WriteMem(4 bytes @ 0xE000EDFC) -- CPU is running -- CPU_ReadMem(4 bytes @ 0xE000EDF0)
 -- CPU_WriteMem(4 bytes @ 0xE0002000) -- CPU_ReadMem(4 bytes @ 0xE000EDFC) -- CPU_ReadMem(4 bytes @ 0xE0001000) (0014ms, 0575ms total)
T0E34 000:717 JLINK_Halt()  returns 0x00 (0000ms, 0575ms total)
T0E34 000:717 JLINK_IsHalted()  returns TRUE (0000ms, 0575ms total)
T0E34 000:717 JLINK_ReadMemU32(0xE000EDF0, 0x0001 Items, ...) -- CPU_ReadMem(4 bytes @ 0xE000EDF0) -- Data:  03 00 03 00  returns 0x01 (0000ms, 0575ms total)
T0E34 000:717 JLINK_WriteU32(0xE000EDF0, 0xA05F0003) -- CPU_WriteMem(4 bytes @ 0xE000EDF0)  returns 0x00 (0000ms, 0575ms total)
T0E34 000:717 JLINK_WriteU32(0xE000EDFC, 0x01000000) -- CPU_WriteMem(4 bytes @ 0xE000EDFC)  returns 0x00 (0001ms, 0576ms total)
T0E34 000:723 JLINK_GetHWStatus(...)  returns 0x00 (0000ms, 0576ms total)
T0E34 000:725 JLINK_GetNumBPUnits(Type = 0xFFFFFF00)  returns 0x06 (0000ms, 0576ms total)
T0E34 000:725 JLINK_GetNumBPUnits(Type = 0xF0)  returns 0x2000 (0000ms, 0576ms total)
T0E34 000:725 JLINK_GetNumWPUnits()  returns 0x04 (0000ms, 0576ms total)
T0E34 000:728 JLINK_GetSpeed()  returns 0xFA0 (0000ms, 0576ms total)
T0E34 000:730 JLINK_ReadMemU32(0xE000E004, 0x0001 Items, ...) -- CPU_ReadMem(4 bytes @ 0xE000E004) -- Data:  01 00 00 00  returns 0x01 (0000ms, 0576ms total)
T0E34 000:730 JLINK_ReadMemU32(0xE000E004, 0x0001 Items, ...) -- CPU_ReadMem(4 bytes @ 0xE000E004) -- Data:  01 00 00 00  returns 0x01 (0001ms, 0577ms total)
T0E34 000:731 JLINK_WriteMem(0xE0001000, 0x001C Bytes, ...) -- Data:  01 00 00 00 00 00 00 00 00 00 00 00 00 00 00 00 ... -- CPU_WriteMem(28 bytes @ 0xE0001000)  returns 0x1C (0000ms, 0577ms total)
T0E34 000:731 JLINK_ReadMem (0xE0001000, 0x001C Bytes, ...) -- CPU_ReadMem(28 bytes @ 0xE0001000) -- Data:  01 00 00 40 00 00 00 00 00 00 00 00 00 00 00 00 ...  returns 0x00 (0001ms, 0578ms total)
T0E34 000:732 JLINK_Halt()  returns 0x00 (0000ms, 0578ms total)
T0E34 000:732 JLINK_IsHalted()  returns TRUE (0000ms, 0578ms total)
T0E34 000:734 JLINK_WriteMem(0x20000000, 0x0260 Bytes, ...) -- Data:  00 BE 0A E0 0D 78 2D 06 68 40 08 24 40 00 00 D3 ... -- CPU_WriteMem(608 bytes @ 0x20000000)  returns 0x260 (0002ms, 0580ms total)
T0E34 000:736 JLINK_WriteReg(R0, 0x08000000)  returns 0x00 (0000ms, 0580ms total)
T0E34 000:736 JLINK_WriteReg(R1, 0x007A1200)  returns 0x00 (0000ms, 0580ms total)
T0E34 000:736 JLINK_WriteReg(R2, 0x00000001)  returns 0x00 (0001ms, 0581ms total)
T0E34 000:737 JLINK_WriteReg(R3, 0x00000000)  returns 0x00 (0000ms, 0581ms total)
T0E34 000:737 JLINK_WriteReg(R4, 0x00000000)  returns 0x00 (0000ms, 0581ms total)
T0E34 000:737 JLINK_WriteReg(R5, 0x00000000)  returns 0x00 (0000ms, 0581ms total)
T0E34 000:737 JLINK_WriteReg(R6, 0x00000000)  returns 0x00 (0000ms, 0581ms total)
T0E34 000:737 JLINK_WriteReg(R7, 0x00000000)  returns 0x00 (0000ms, 0581ms total)
T0E34 000:737 JLINK_WriteReg(R8, 0x00000000)  returns 0x00 (0000ms, 0581ms total)
T0E34 000:737 JLINK_WriteReg(R9, 0x20000258)  returns 0x00 (0000ms, 0581ms total)
T0E34 000:737 JLINK_WriteReg(R10, 0x00000000)  returns 0x00 (0000ms, 0581ms total)
T0E34 000:737 JLINK_WriteReg(R11, 0x00000000)  returns 0x00 (0000ms, 0581ms total)
T0E34 000:737 JLINK_WriteReg(R12, 0x00000000)  returns 0x00 (0000ms, 0581ms total)
T0E34 000:737 JLINK_WriteReg(R13 (SP), 0x20000800)  returns 0x00 (0000ms, 0581ms total)
T0E34 000:737 JLINK_WriteReg(R14, 0x20000001)  returns 0x00 (0000ms, 0581ms total)
T0E34 000:737 JLINK_WriteReg(R15 (PC), 0x20000038)  returns 0x00 (0000ms, 0581ms total)
T0E34 000:737 JLINK_WriteReg(XPSR, 0x01000000)  returns 0x00 (0000ms, 0581ms total)
T0E34 000:737 JLINK_WriteReg(MSP, 0x20000800)  returns 0x00 (0000ms, 0581ms total)
T0E34 000:737 JLINK_WriteReg(PSP, 0x20000800)  returns 0x00 (0000ms, 0581ms total)
T0E34 000:737 JLINK_WriteReg(CFBP, 0x00000000)  returns 0x00 (0000ms, 0581ms total)
T0E34 000:737 JLINK_SetBPEx(Addr = 0x20000000, Type = 0xFFFFFFF2) -- CPU_ReadMem(2 bytes @ 0x20000000)  returns 0x00000001 (0000ms, 0581ms total)
T0E34 000:737 JLINK_Go() -- CPU_WriteMem(2 bytes @ 0x20000000) -- CPU_WriteMem(4 bytes @ 0xE0002008) -- CPU_WriteMem(4 bytes @ 0xE000200C) -- CPU_WriteMem(4 bytes @ 0xE0002010) -- CPU_WriteMem(4 bytes @ 0xE0002014) -- CPU_WriteMem(4 bytes @ 0xE0002018) -- CPU_WriteMem(4 bytes @ 0xE000201C) -- CPU_WriteMem(4 bytes @ 0xE0001004) (0005ms, 0586ms total)
T0E34 000:742 JLINK_IsHalted() -- CPU_ReadMem(2 bytes @ 0x20000000)  returns TRUE (0002ms, 0588ms total)
T0E34 000:744 JLINK_ReadReg(R15 (PC))  returns 0x20000000 (0000ms, 0586ms total)
T0E34 000:744 JLINK_ClrBPEx(BPHandle = 0x00000001)  returns 0x00 (0000ms, 0586ms total)
T0E34 000:744 JLINK_ReadReg(R0)  returns 0x00000000 (0000ms, 0586ms total)
T0E34 000:745 JLINK_WriteReg(R0, 0x08000000)  returns 0x00 (0000ms, 0586ms total)
T0E34 000:745 JLINK_WriteReg(R1, 0x007A1200)  returns 0x00 (0000ms, 0586ms total)
T0E34 000:745 JLINK_WriteReg(R2, 0x00000001)  returns 0x00 (0000ms, 0586ms total)
T0E34 000:745 JLINK_WriteReg(R3, 0x00000000)  returns 0x00 (0000ms, 0586ms total)
T0E34 000:745 JLINK_WriteReg(R4, 0x00000000)  returns 0x00 (0000ms, 0586ms total)
T0E34 000:745 JLINK_WriteReg(R5, 0x00000000)  returns 0x00 (0000ms, 0586ms total)
T0E34 000:745 JLINK_WriteReg(R6, 0x00000000)  returns 0x00 (0000ms, 0586ms total)
T0E34 000:745 JLINK_WriteReg(R7, 0x00000000)  returns 0x00 (0000ms, 0586ms total)
T0E34 000:745 JLINK_WriteReg(R8, 0x00000000)  returns 0x00 (0000ms, 0586ms total)
T0E34 000:745 JLINK_WriteReg(R9, 0x20000258)  returns 0x00 (0000ms, 0586ms total)
T0E34 000:745 JLINK_WriteReg(R10, 0x00000000)  returns 0x00 (0000ms, 0586ms total)
T0E34 000:745 JLINK_WriteReg(R11, 0x00000000)  returns 0x00 (0000ms, 0586ms total)
T0E34 000:745 JLINK_WriteReg(R12, 0x00000000)  returns 0x00 (0000ms, 0586ms total)
T0E34 000:745 JLINK_WriteReg(R13 (SP), 0x20000800)  returns 0x00 (0000ms, 0586ms total)
T0E34 000:745 JLINK_WriteReg(R14, 0x20000001)  returns 0x00 (0000ms, 0586ms total)
T0E34 000:745 JLINK_WriteReg(R15 (PC), 0x20000098)  returns 0x00 (0000ms, 0586ms total)
T0E34 000:745 JLINK_WriteReg(XPSR, 0x01000000)  returns 0x00 (0000ms, 0586ms total)
T0E34 000:745 JLINK_WriteReg(MSP, 0x20000800)  returns 0x00 (0000ms, 0586ms total)
T0E34 000:745 JLINK_WriteReg(PSP, 0x20000800)  returns 0x00 (0000ms, 0586ms total)
T0E34 000:745 JLINK_WriteReg(CFBP, 0x00000000)  returns 0x00 (0000ms, 0586ms total)
T0E34 000:745 JLINK_SetBPEx(Addr = 0x20000000, Type = 0xFFFFFFF2)  returns 0x00000002 (0000ms, 0586ms total)
T0E34 000:745 JLINK_Go() (0001ms, 0587ms total)
T0E34 000:746 JLINK_IsHalted()  returns FALSE (0000ms, 0587ms total)
T0E34 000:783 JLINK_IsHalted()  returns FALSE (0000ms, 0587ms total)
T0E34 000:784 JLINK_IsHalted()  returns FALSE (0000ms, 0587ms total)
T0E34 000:789 JLINK_IsHalted()  returns FALSE (0000ms, 0587ms total)
T0E34 000:790 JLINK_IsHalted() -- CPU_ReadMem(2 bytes @ 0x20000000)  returns TRUE (0002ms, 0589ms total)
T0E34 000:792 JLINK_ReadReg(R15 (PC))  returns 0x20000000 (0000ms, 0587ms total)
T0E34 000:792 JLINK_ClrBPEx(BPHandle = 0x00000002)  returns 0x00 (0000ms, 0587ms total)
T0E34 000:792 JLINK_ReadReg(R0)  returns 0x00000000 (0000ms, 0587ms total)
T0E34 000:842 JLINK_WriteReg(R0, 0x00000001)  returns 0x00 (0000ms, 0587ms total)
T0E34 000:842 JLINK_WriteReg(R1, 0x007A1200)  returns 0x00 (0000ms, 0587ms total)
T0E34 000:842 JLINK_WriteReg(R2, 0x00000001)  returns 0x00 (0000ms, 0587ms total)
T0E34 000:842 JLINK_WriteReg(R3, 0x00000000)  returns 0x00 (0000ms, 0587ms total)
T0E34 000:842 JLINK_WriteReg(R4, 0x00000000)  returns 0x00 (0000ms, 0587ms total)
T0E34 000:842 JLINK_WriteReg(R5, 0x00000000)  returns 0x00 (0000ms, 0587ms total)
T0E34 000:842 JLINK_WriteReg(R6, 0x00000000)  returns 0x00 (0000ms, 0587ms total)
T0E34 000:842 JLINK_WriteReg(R7, 0x00000000)  returns 0x00 (0000ms, 0587ms total)
T0E34 000:842 JLINK_WriteReg(R8, 0x00000000)  returns 0x00 (0000ms, 0587ms total)
T0E34 000:842 JLINK_WriteReg(R9, 0x20000258)  returns 0x00 (0000ms, 0587ms total)
T0E34 000:842 JLINK_WriteReg(R10, 0x00000000)  returns 0x00 (0000ms, 0587ms total)
T0E34 000:842 JLINK_WriteReg(R11, 0x00000000)  returns 0x00 (0000ms, 0587ms total)
T0E34 000:842 JLINK_WriteReg(R12, 0x00000000)  returns 0x00 (0000ms, 0587ms total)
T0E34 000:842 JLINK_WriteReg(R13 (SP), 0x20000800)  returns 0x00 (0001ms, 0588ms total)
T0E34 000:843 JLINK_WriteReg(R14, 0x20000001)  returns 0x00 (0000ms, 0588ms total)
T0E34 000:843 JLINK_WriteReg(R15 (PC), 0x2000007C)  returns 0x00 (0000ms, 0588ms total)
T0E34 000:843 JLINK_WriteReg(XPSR, 0x01000000)  returns 0x00 (0000ms, 0588ms total)
T0E34 000:843 JLINK_WriteReg(MSP, 0x20000800)  returns 0x00 (0000ms, 0588ms total)
T0E34 000:843 JLINK_WriteReg(PSP, 0x20000800)  returns 0x00 (0000ms, 0588ms total)
T0E34 000:843 JLINK_WriteReg(CFBP, 0x00000000)  returns 0x00 (0000ms, 0588ms total)
T0E34 000:843 JLINK_SetBPEx(Addr = 0x20000000, Type = 0xFFFFFFF2)  returns 0x00000003 (0000ms, 0588ms total)
T0E34 000:843 JLINK_Go() (0001ms, 0589ms total)
T0E34 000:844 JLINK_IsHalted() -- CPU_ReadMem(2 bytes @ 0x20000000)  returns TRUE (0002ms, 0591ms total)
T0E34 000:846 JLINK_ReadReg(R15 (PC))  returns 0x20000000 (0000ms, 0589ms total)
T0E34 000:846 JLINK_ClrBPEx(BPHandle = 0x00000003)  returns 0x00 (0000ms, 0589ms total)
T0E34 000:846 JLINK_ReadReg(R0)  returns 0x00000000 (0000ms, 0589ms total)
T0E34 000:849 JLINK_WriteMem(0x20000000, 0x0260 Bytes, ...) -- Data:  00 BE 0A E0 0D 78 2D 06 68 40 08 24 40 00 00 D3 ... -- CPU_WriteMem(608 bytes @ 0x20000000)  returns 0x260 (0003ms, 0592ms total)
T0E34 000:852 JLINK_WriteReg(R0, 0x08000000)  returns 0x00 (0000ms, 0592ms total)
T0E34 000:852 JLINK_WriteReg(R1, 0x007A1200)  returns 0x00 (0000ms, 0592ms total)
T0E34 000:852 JLINK_WriteReg(R2, 0x00000002)  returns 0x00 (0000ms, 0592ms total)
T0E34 000:852 JLINK_WriteReg(R3, 0x00000000)  returns 0x00 (0000ms, 0592ms total)
T0E34 000:852 JLINK_WriteReg(R4, 0x00000000)  returns 0x00 (0000ms, 0592ms total)
T0E34 000:852 JLINK_WriteReg(R5, 0x00000000)  returns 0x00 (0000ms, 0592ms total)
T0E34 000:852 JLINK_WriteReg(R6, 0x00000000)  returns 0x00 (0000ms, 0592ms total)
T0E34 000:852 JLINK_WriteReg(R7, 0x00000000)  returns 0x00 (0000ms, 0592ms total)
T0E34 000:852 JLINK_WriteReg(R8, 0x00000000)  returns 0x00 (0000ms, 0592ms total)
T0E34 000:852 JLINK_WriteReg(R9, 0x20000258)  returns 0x00 (0000ms, 0592ms total)
T0E34 000:852 JLINK_WriteReg(R10, 0x00000000)  returns 0x00 (0000ms, 0592ms total)
T0E34 000:852 JLINK_WriteReg(R11, 0x00000000)  returns 0x00 (0000ms, 0592ms total)
T0E34 000:852 JLINK_WriteReg(R12, 0x00000000)  returns 0x00 (0000ms, 0592ms total)
T0E34 000:852 JLINK_WriteReg(R13 (SP), 0x20000800)  returns 0x00 (0000ms, 0592ms total)
T0E34 000:852 JLINK_WriteReg(R14, 0x20000001)  returns 0x00 (0001ms, 0593ms total)
T0E34 000:853 JLINK_WriteReg(R15 (PC), 0x20000038)  returns 0x00 (0000ms, 0593ms total)
T0E34 000:853 JLINK_WriteReg(XPSR, 0x01000000)  returns 0x00 (0000ms, 0593ms total)
T0E34 000:853 JLINK_WriteReg(MSP, 0x20000800)  returns 0x00 (0000ms, 0593ms total)
T0E34 000:853 JLINK_WriteReg(PSP, 0x20000800)  returns 0x00 (0000ms, 0593ms total)
T0E34 000:853 JLINK_WriteReg(CFBP, 0x00000000)  returns 0x00 (0000ms, 0593ms total)
T0E34 000:853 JLINK_SetBPEx(Addr = 0x20000000, Type = 0xFFFFFFF2) -- CPU_ReadMem(2 bytes @ 0x20000000)  returns 0x00000004 (0000ms, 0593ms total)
T0E34 000:853 JLINK_Go() -- CPU_WriteMem(2 bytes @ 0x20000000) (0002ms, 0595ms total)
T0E34 000:855 JLINK_IsHalted() -- CPU_ReadMem(2 bytes @ 0x20000000)  returns TRUE (0002ms, 0597ms total)
T0E34 000:857 JLINK_ReadReg(R15 (PC))  returns 0x20000000 (0000ms, 0595ms total)
T0E34 000:857 JLINK_ClrBPEx(BPHandle = 0x00000004)  returns 0x00 (0000ms, 0595ms total)
T0E34 000:857 JLINK_ReadReg(R0)  returns 0x00000000 (0000ms, 0595ms total)
T0E34 000:858 JLINK_WriteMem(0x20000260, 0x0400 Bytes, ...) -- Data:  10 BC 00 20 45 01 00 08 A1 8A 00 08 71 7A 00 08 ... -- CPU_WriteMem(1024 bytes @ 0x20000260)  returns 0x400 (0004ms, 0599ms total)
T0E34 000:862 JLINK_WriteReg(R0, 0x08000000)  returns 0x00 (0000ms, 0599ms total)
T0E34 000:862 JLINK_WriteReg(R1, 0x00000400)  returns 0x00 (0000ms, 0599ms total)
T0E34 000:862 JLINK_WriteReg(R2, 0x20000260)  returns 0x00 (0000ms, 0599ms total)
T0E34 000:862 JLINK_WriteReg(R3, 0x00000000)  returns 0x00 (0000ms, 0599ms total)
T0E34 000:862 JLINK_WriteReg(R4, 0x00000000)  returns 0x00 (0000ms, 0599ms total)
T0E34 000:862 JLINK_WriteReg(R5, 0x00000000)  returns 0x00 (0000ms, 0599ms total)
T0E34 000:862 JLINK_WriteReg(R6, 0x00000000)  returns 0x00 (0000ms, 0599ms total)
T0E34 000:862 JLINK_WriteReg(R7, 0x00000000)  returns 0x00 (0000ms, 0599ms total)
T0E34 000:862 JLINK_WriteReg(R8, 0x00000000)  returns 0x00 (0000ms, 0599ms total)
T0E34 000:862 JLINK_WriteReg(R9, 0x20000258)  returns 0x00 (0000ms, 0599ms total)
T0E34 000:862 JLINK_WriteReg(R10, 0x00000000)  returns 0x00 (0000ms, 0599ms total)
T0E34 000:862 JLINK_WriteReg(R11, 0x00000000)  returns 0x00 (0000ms, 0599ms total)
T0E34 000:862 JLINK_WriteReg(R12, 0x00000000)  returns 0x00 (0000ms, 0599ms total)
T0E34 000:862 JLINK_WriteReg(R13 (SP), 0x20000800)  returns 0x00 (0000ms, 0599ms total)
T0E34 000:862 JLINK_WriteReg(R14, 0x20000001)  returns 0x00 (0000ms, 0599ms total)
T0E34 000:862 JLINK_WriteReg(R15 (PC), 0x2000018C)  returns 0x00 (0000ms, 0599ms total)
T0E34 000:862 JLINK_WriteReg(XPSR, 0x01000000)  returns 0x00 (0000ms, 0599ms total)
T0E34 000:862 JLINK_WriteReg(MSP, 0x20000800)  returns 0x00 (0000ms, 0599ms total)
T0E34 000:862 JLINK_WriteReg(PSP, 0x20000800)  returns 0x00 (0000ms, 0599ms total)
T0E34 000:862 JLINK_WriteReg(CFBP, 0x00000000)  returns 0x00 (0000ms, 0599ms total)
T0E34 000:862 JLINK_SetBPEx(Addr = 0x20000000, Type = 0xFFFFFFF2)  returns 0x00000005 (0000ms, 0599ms total)
T0E34 000:862 JLINK_Go() (0002ms, 0601ms total)
T0E34 000:864 JLINK_IsHalted()  returns FALSE (0000ms, 0601ms total)
T0E34 000:887 JLINK_IsHalted()  returns FALSE (0000ms, 0601ms total)
T0E34 000:888 JLINK_IsHalted()  returns FALSE (0000ms, 0601ms total)
T0E34 000:889 JLINK_IsHalted()  returns FALSE (0000ms, 0601ms total)
T0E34 000:890 JLINK_IsHalted()  returns FALSE (0000ms, 0601ms total)
T0E34 000:891 JLINK_IsHalted()  returns FALSE (0000ms, 0601ms total)
T0E34 000:895 JLINK_IsHalted() -- CPU_ReadMem(2 bytes @ 0x20000000)  returns TRUE (0002ms, 0603ms total)
T0E34 000:897 JLINK_ReadReg(R15 (PC))  returns 0x20000000 (0000ms, 0601ms total)
T0E34 000:897 JLINK_ClrBPEx(BPHandle = 0x00000005)  returns 0x00 (0000ms, 0601ms total)
T0E34 000:897 JLINK_ReadReg(R0)  returns 0x00000000 (0000ms, 0601ms total)
T0E34 000:897 JLINK_WriteMem(0x20000260, 0x0400 Bytes, ...) -- Data:  0A 51 02 90 40 1A 01 90 40 28 66 DA C3 F3 13 00 ... -- CPU_WriteMem(1024 bytes @ 0x20000260)  returns 0x400 (0005ms, 0606ms total)
T0E34 000:902 JLINK_WriteReg(R0, 0x08000400)  returns 0x00 (0000ms, 0606ms total)
T0E34 000:902 JLINK_WriteReg(R1, 0x00000400)  returns 0x00 (0000ms, 0606ms total)
T0E34 000:902 JLINK_WriteReg(R2, 0x20000260)  returns 0x00 (0000ms, 0606ms total)
T0E34 000:902 JLINK_WriteReg(R3, 0x00000000)  returns 0x00 (0000ms, 0606ms total)
T0E34 000:902 JLINK_WriteReg(R4, 0x00000000)  returns 0x00 (0000ms, 0606ms total)
T0E34 000:902 JLINK_WriteReg(R5, 0x00000000)  returns 0x00 (0000ms, 0606ms total)
T0E34 000:902 JLINK_WriteReg(R6, 0x00000000)  returns 0x00 (0000ms, 0606ms total)
T0E34 000:902 JLINK_WriteReg(R7, 0x00000000)  returns 0x00 (0000ms, 0606ms total)
T0E34 000:902 JLINK_WriteReg(R8, 0x00000000)  returns 0x00 (0000ms, 0606ms total)
T0E34 000:902 JLINK_WriteReg(R9, 0x20000258)  returns 0x00 (0000ms, 0606ms total)
T0E34 000:902 JLINK_WriteReg(R10, 0x00000000)  returns 0x00 (0000ms, 0606ms total)
T0E34 000:902 JLINK_WriteReg(R11, 0x00000000)  returns 0x00 (0000ms, 0606ms total)
T0E34 000:902 JLINK_WriteReg(R12, 0x00000000)  returns 0x00 (0000ms, 0606ms total)
T0E34 000:902 JLINK_WriteReg(R13 (SP), 0x20000800)  returns 0x00 (0000ms, 0606ms total)
T0E34 000:902 JLINK_WriteReg(R14, 0x20000001)  returns 0x00 (0000ms, 0606ms total)
T0E34 000:902 JLINK_WriteReg(R15 (PC), 0x2000018C)  returns 0x00 (0000ms, 0606ms total)
T0E34 000:902 JLINK_WriteReg(XPSR, 0x01000000)  returns 0x00 (0000ms, 0606ms total)
T0E34 000:902 JLINK_WriteReg(MSP, 0x20000800)  returns 0x00 (0000ms, 0606ms total)
T0E34 000:902 JLINK_WriteReg(PSP, 0x20000800)  returns 0x00 (0000ms, 0606ms total)
T0E34 000:902 JLINK_WriteReg(CFBP, 0x00000000)  returns 0x00 (0000ms, 0606ms total)
T0E34 000:902 JLINK_SetBPEx(Addr = 0x20000000, Type = 0xFFFFFFF2)  returns 0x00000006 (0000ms, 0606ms total)
T0E34 000:902 JLINK_Go() (0002ms, 0608ms total)
T0E34 000:904 JLINK_IsHalted()  returns FALSE (0000ms, 0608ms total)
T0E34 000:905 JLINK_IsHalted()  returns FALSE (0000ms, 0608ms total)
T0E34 000:906 JLINK_IsHalted()  returns FALSE (0000ms, 0608ms total)
T0E34 000:907 JLINK_IsHalted()  returns FALSE (0000ms, 0608ms total)
T0E34 000:913 JLINK_IsHalted()  returns FALSE (0000ms, 0608ms total)
T0E34 000:914 JLINK_IsHalted()  returns FALSE (0000ms, 0608ms total)
T0E34 000:915 JLINK_IsHalted()  returns FALSE (0000ms, 0608ms total)
T0E34 000:916 JLINK_IsHalted()  returns FALSE (0000ms, 0608ms total)
T0E34 000:917 JLINK_IsHalted()  returns FALSE (0000ms, 0608ms total)
T0E34 000:918 JLINK_IsHalted()  returns FALSE (0000ms, 0608ms total)
T0E34 000:919 JLINK_IsHalted()  returns FALSE (0000ms, 0608ms total)
T0E34 000:920 JLINK_IsHalted()  returns FALSE (0000ms, 0608ms total)
T0E34 000:921 JLINK_IsHalted()  returns FALSE (0000ms, 0608ms total)
T0E34 000:922 JLINK_IsHalted()  returns FALSE (0000ms, 0608ms total)
T0E34 000:926 JLINK_IsHalted()  returns FALSE (0000ms, 0608ms total)
T0E34 000:927 JLINK_IsHalted()  returns FALSE (0000ms, 0608ms total)
T0E34 000:928 JLINK_IsHalted()  returns FALSE (0000ms, 0608ms total)
T0E34 000:929 JLINK_IsHalted()  returns FALSE (0000ms, 0608ms total)
T0E34 000:930 JLINK_IsHalted()  returns FALSE (0000ms, 0608ms total)
T0E34 000:931 JLINK_IsHalted()  returns FALSE (0000ms, 0608ms total)
T0E34 000:932 JLINK_IsHalted()  returns FALSE (0000ms, 0608ms total)
T0E34 000:933 JLINK_IsHalted()  returns FALSE (0000ms, 0608ms total)
T0E34 000:934 JLINK_IsHalted()  returns FALSE (0000ms, 0608ms total)
T0E34 000:935 JLINK_IsHalted() -- CPU_ReadMem(2 bytes @ 0x20000000)  returns TRUE (0002ms, 0610ms total)
T0E34 000:937 JLINK_ReadReg(R15 (PC))  returns 0x20000000 (0000ms, 0608ms total)
T0E34 000:937 JLINK_ClrBPEx(BPHandle = 0x00000006)  returns 0x00 (0000ms, 0608ms total)
T0E34 000:937 JLINK_ReadReg(R0)  returns 0x00000000 (0000ms, 0608ms total)
T0E34 000:937 JLINK_WriteMem(0x20000260, 0x0400 Bytes, ...) -- Data:  00 20 70 47 44 0F 44 EA C1 04 C1 00 E0 18 30 BC ... -- CPU_WriteMem(1024 bytes @ 0x20000260)  returns 0x400 (0004ms, 0612ms total)
T0E34 000:941 JLINK_WriteReg(R0, 0x08000800)  returns 0x00 (0000ms, 0612ms total)
T0E34 000:941 JLINK_WriteReg(R1, 0x00000400)  returns 0x00 (0000ms, 0612ms total)
T0E34 000:941 JLINK_WriteReg(R2, 0x20000260)  returns 0x00 (0000ms, 0612ms total)
T0E34 000:941 JLINK_WriteReg(R3, 0x00000000)  returns 0x00 (0000ms, 0612ms total)
T0E34 000:941 JLINK_WriteReg(R4, 0x00000000)  returns 0x00 (0000ms, 0612ms total)
T0E34 000:941 JLINK_WriteReg(R5, 0x00000000)  returns 0x00 (0001ms, 0613ms total)
T0E34 000:942 JLINK_WriteReg(R6, 0x00000000)  returns 0x00 (0000ms, 0613ms total)
T0E34 000:942 JLINK_WriteReg(R7, 0x00000000)  returns 0x00 (0000ms, 0613ms total)
T0E34 000:942 JLINK_WriteReg(R8, 0x00000000)  returns 0x00 (0000ms, 0613ms total)
T0E34 000:942 JLINK_WriteReg(R9, 0x20000258)  returns 0x00 (0000ms, 0613ms total)
T0E34 000:942 JLINK_WriteReg(R10, 0x00000000)  returns 0x00 (0000ms, 0613ms total)
T0E34 000:942 JLINK_WriteReg(R11, 0x00000000)  returns 0x00 (0000ms, 0613ms total)
T0E34 000:942 JLINK_WriteReg(R12, 0x00000000)  returns 0x00 (0000ms, 0613ms total)
T0E34 000:942 JLINK_WriteReg(R13 (SP), 0x20000800)  returns 0x00 (0000ms, 0613ms total)
T0E34 000:942 JLINK_WriteReg(R14, 0x20000001)  returns 0x00 (0000ms, 0613ms total)
T0E34 000:942 JLINK_WriteReg(R15 (PC), 0x2000018C)  returns 0x00 (0000ms, 0613ms total)
T0E34 000:942 JLINK_WriteReg(XPSR, 0x01000000)  returns 0x00 (0000ms, 0613ms total)
T0E34 000:942 JLINK_WriteReg(MSP, 0x20000800)  returns 0x00 (0000ms, 0613ms total)
T0E34 000:942 JLINK_WriteReg(PSP, 0x20000800)  returns 0x00 (0000ms, 0613ms total)
T0E34 000:942 JLINK_WriteReg(CFBP, 0x00000000)  returns 0x00 (0000ms, 0613ms total)
T0E34 000:942 JLINK_SetBPEx(Addr = 0x20000000, Type = 0xFFFFFFF2)  returns 0x00000007 (0000ms, 0613ms total)
T0E34 000:942 JLINK_Go() (0001ms, 0614ms total)
T0E34 000:943 JLINK_IsHalted()  returns FALSE (0000ms, 0614ms total)
T0E34 000:949 JLINK_IsHalted()  returns FALSE (0000ms, 0614ms total)
T0E34 000:950 JLINK_IsHalted()  returns FALSE (0000ms, 0614ms total)
T0E34 000:951 JLINK_IsHalted()  returns FALSE (0000ms, 0614ms total)
T0E34 000:952 JLINK_IsHalted()  returns FALSE (0000ms, 0614ms total)
T0E34 000:953 JLINK_IsHalted()  returns FALSE (0000ms, 0614ms total)
T0E34 000:954 JLINK_IsHalted()  returns FALSE (0000ms, 0614ms total)
T0E34 000:955 JLINK_IsHalted()  returns FALSE (0000ms, 0614ms total)
T0E34 000:956 JLINK_IsHalted()  returns FALSE (0000ms, 0614ms total)
T0E34 000:960 JLINK_IsHalted()  returns FALSE (0000ms, 0614ms total)
T0E34 000:961 JLINK_IsHalted()  returns FALSE (0000ms, 0614ms total)
T0E34 000:962 JLINK_IsHalted()  returns FALSE (0000ms, 0614ms total)
T0E34 000:963 JLINK_IsHalted()  returns FALSE (0000ms, 0614ms total)
T0E34 000:964 JLINK_IsHalted()  returns FALSE (0000ms, 0614ms total)
T0E34 000:965 JLINK_IsHalted()  returns FALSE (0000ms, 0614ms total)
T0E34 000:966 JLINK_IsHalted()  returns FALSE (0000ms, 0614ms total)
T0E34 000:967 JLINK_IsHalted()  returns FALSE (0000ms, 0614ms total)
T0E34 000:968 JLINK_IsHalted()  returns FALSE (0000ms, 0614ms total)
T0E34 000:969 JLINK_IsHalted()  returns FALSE (0000ms, 0614ms total)
T0E34 000:978 JLINK_IsHalted() -- CPU_ReadMem(2 bytes @ 0x20000000)  returns TRUE (0002ms, 0616ms total)
T0E34 000:980 JLINK_ReadReg(R15 (PC))  returns 0x20000000 (0000ms, 0614ms total)
T0E34 000:980 JLINK_ClrBPEx(BPHandle = 0x00000007)  returns 0x00 (0000ms, 0614ms total)
T0E34 000:980 JLINK_ReadReg(R0)  returns 0x00000000 (0000ms, 0614ms total)
T0E34 000:980 JLINK_WriteMem(0x20000260, 0x0400 Bytes, ...) -- Data:  06 F1 08 43 20 63 10 E0 E0 6A A2 F1 0D 06 06 EB ... -- CPU_WriteMem(1024 bytes @ 0x20000260)  returns 0x400 (0005ms, 0619ms total)
T0E34 000:985 JLINK_WriteReg(R0, 0x08000C00)  returns 0x00 (0000ms, 0619ms total)
T0E34 000:985 JLINK_WriteReg(R1, 0x00000400)  returns 0x00 (0000ms, 0619ms total)
T0E34 000:985 JLINK_WriteReg(R2, 0x20000260)  returns 0x00 (0000ms, 0619ms total)
T0E34 000:985 JLINK_WriteReg(R3, 0x00000000)  returns 0x00 (0000ms, 0619ms total)
T0E34 000:985 JLINK_WriteReg(R4, 0x00000000)  returns 0x00 (0000ms, 0619ms total)
T0E34 000:985 JLINK_WriteReg(R5, 0x00000000)  returns 0x00 (0000ms, 0619ms total)
T0E34 000:985 JLINK_WriteReg(R6, 0x00000000)  returns 0x00 (0000ms, 0619ms total)
T0E34 000:985 JLINK_WriteReg(R7, 0x00000000)  returns 0x00 (0000ms, 0619ms total)
T0E34 000:985 JLINK_WriteReg(R8, 0x00000000)  returns 0x00 (0000ms, 0619ms total)
T0E34 000:985 JLINK_WriteReg(R9, 0x20000258)  returns 0x00 (0000ms, 0619ms total)
T0E34 000:985 JLINK_WriteReg(R10, 0x00000000)  returns 0x00 (0000ms, 0619ms total)
T0E34 000:985 JLINK_WriteReg(R11, 0x00000000)  returns 0x00 (0000ms, 0619ms total)
T0E34 000:985 JLINK_WriteReg(R12, 0x00000000)  returns 0x00 (0000ms, 0619ms total)
T0E34 000:985 JLINK_WriteReg(R13 (SP), 0x20000800)  returns 0x00 (0000ms, 0619ms total)
T0E34 000:985 JLINK_WriteReg(R14, 0x20000001)  returns 0x00 (0000ms, 0619ms total)
T0E34 000:985 JLINK_WriteReg(R15 (PC), 0x2000018C)  returns 0x00 (0000ms, 0619ms total)
T0E34 000:985 JLINK_WriteReg(XPSR, 0x01000000)  returns 0x00 (0000ms, 0619ms total)
T0E34 000:985 JLINK_WriteReg(MSP, 0x20000800)  returns 0x00 (0000ms, 0619ms total)
T0E34 000:985 JLINK_WriteReg(PSP, 0x20000800)  returns 0x00 (0000ms, 0619ms total)
T0E34 000:985 JLINK_WriteReg(CFBP, 0x00000000)  returns 0x00 (0000ms, 0619ms total)
T0E34 000:985 JLINK_SetBPEx(Addr = 0x20000000, Type = 0xFFFFFFF2)  returns 0x00000008 (0000ms, 0619ms total)
T0E34 000:985 JLINK_Go() (0001ms, 0620ms total)
T0E34 000:986 JLINK_IsHalted()  returns FALSE (0001ms, 0621ms total)
T0E34 000:988 JLINK_IsHalted()  returns FALSE (0000ms, 0620ms total)
T0E34 000:989 JLINK_IsHalted()  returns FALSE (0000ms, 0620ms total)
T0E34 000:990 JLINK_IsHalted()  returns FALSE (0000ms, 0620ms total)
T0E34 000:994 JLINK_IsHalted()  returns FALSE (0000ms, 0620ms total)
T0E34 000:995 JLINK_IsHalted()  returns FALSE (0000ms, 0620ms total)
T0E34 000:996 JLINK_IsHalted()  returns FALSE (0000ms, 0620ms total)
T0E34 000:997 JLINK_IsHalted()  returns FALSE (0000ms, 0620ms total)
T0E34 000:998 JLINK_IsHalted()  returns FALSE (0000ms, 0620ms total)
T0E34 000:999 JLINK_IsHalted()  returns FALSE (0000ms, 0620ms total)
T0E34 001:000 JLINK_IsHalted()  returns FALSE (0000ms, 0620ms total)
T0E34 001:001 JLINK_IsHalted()  returns FALSE (0000ms, 0620ms total)
T0E34 001:002 JLINK_IsHalted()  returns FALSE (0000ms, 0620ms total)
T0E34 001:006 JLINK_IsHalted()  returns FALSE (0000ms, 0620ms total)
T0E34 001:007 JLINK_IsHalted()  returns FALSE (0000ms, 0620ms total)
T0E34 001:008 JLINK_IsHalted()  returns FALSE (0000ms, 0620ms total)
T0E34 001:009 JLINK_IsHalted()  returns FALSE (0000ms, 0620ms total)
T0E34 001:010 JLINK_IsHalted()  returns FALSE (0000ms, 0620ms total)
T0E34 001:011 JLINK_IsHalted()  returns FALSE (0000ms, 0620ms total)
T0E34 001:012 JLINK_IsHalted()  returns FALSE (0000ms, 0620ms total)
T0E34 001:013 JLINK_IsHalted()  returns FALSE (0000ms, 0620ms total)
T0E34 001:014 JLINK_IsHalted()  returns FALSE (0000ms, 0620ms total)
T0E34 001:015 JLINK_IsHalted()  returns FALSE (0000ms, 0620ms total)
T0E34 001:016 JLINK_IsHalted()  returns FALSE (0000ms, 0620ms total)
T0E34 001:017 JLINK_IsHalted()  returns FALSE (0000ms, 0620ms total)
T0E34 001:022 JLINK_IsHalted() -- CPU_ReadMem(2 bytes @ 0x20000000)  returns TRUE (0002ms, 0622ms total)
T0E34 001:024 JLINK_ReadReg(R15 (PC))  returns 0x20000000 (0000ms, 0620ms total)
T0E34 001:024 JLINK_ClrBPEx(BPHandle = 0x00000008)  returns 0x00 (0000ms, 0620ms total)
T0E34 001:024 JLINK_ReadReg(R0)  returns 0x00000000 (0000ms, 0620ms total)
T0E34 001:024 JLINK_WriteMem(0x20000260, 0x0400 Bytes, ...) -- Data:  29 46 04 90 08 F0 F2 FF 04 98 30 22 0A 49 34 30 ... -- CPU_WriteMem(1024 bytes @ 0x20000260)  returns 0x400 (0004ms, 0624ms total)
T0E34 001:028 JLINK_WriteReg(R0, 0x08001000)  returns 0x00 (0001ms, 0625ms total)
T0E34 001:029 JLINK_WriteReg(R1, 0x00000400)  returns 0x00 (0000ms, 0625ms total)
T0E34 001:029 JLINK_WriteReg(R2, 0x20000260)  returns 0x00 (0000ms, 0625ms total)
T0E34 001:029 JLINK_WriteReg(R3, 0x00000000)  returns 0x00 (0000ms, 0625ms total)
T0E34 001:029 JLINK_WriteReg(R4, 0x00000000)  returns 0x00 (0000ms, 0625ms total)
T0E34 001:029 JLINK_WriteReg(R5, 0x00000000)  returns 0x00 (0000ms, 0625ms total)
T0E34 001:029 JLINK_WriteReg(R6, 0x00000000)  returns 0x00 (0000ms, 0625ms total)
T0E34 001:029 JLINK_WriteReg(R7, 0x00000000)  returns 0x00 (0000ms, 0625ms total)
T0E34 001:029 JLINK_WriteReg(R8, 0x00000000)  returns 0x00 (0000ms, 0625ms total)
T0E34 001:029 JLINK_WriteReg(R9, 0x20000258)  returns 0x00 (0000ms, 0625ms total)
T0E34 001:029 JLINK_WriteReg(R10, 0x00000000)  returns 0x00 (0000ms, 0625ms total)
T0E34 001:029 JLINK_WriteReg(R11, 0x00000000)  returns 0x00 (0000ms, 0625ms total)
T0E34 001:029 JLINK_WriteReg(R12, 0x00000000)  returns 0x00 (0000ms, 0625ms total)
T0E34 001:029 JLINK_WriteReg(R13 (SP), 0x20000800)  returns 0x00 (0000ms, 0625ms total)
T0E34 001:029 JLINK_WriteReg(R14, 0x20000001)  returns 0x00 (0000ms, 0625ms total)
T0E34 001:029 JLINK_WriteReg(R15 (PC), 0x2000018C)  returns 0x00 (0000ms, 0625ms total)
T0E34 001:029 JLINK_WriteReg(XPSR, 0x01000000)  returns 0x00 (0000ms, 0625ms total)
T0E34 001:029 JLINK_WriteReg(MSP, 0x20000800)  returns 0x00 (0000ms, 0625ms total)
T0E34 001:029 JLINK_WriteReg(PSP, 0x20000800)  returns 0x00 (0000ms, 0625ms total)
T0E34 001:029 JLINK_WriteReg(CFBP, 0x00000000)  returns 0x00 (0000ms, 0625ms total)
T0E34 001:029 JLINK_SetBPEx(Addr = 0x20000000, Type = 0xFFFFFFF2)  returns 0x00000009 (0000ms, 0625ms total)
T0E34 001:029 JLINK_Go() (0001ms, 0626ms total)
T0E34 001:030 JLINK_IsHalted()  returns FALSE (0000ms, 0626ms total)
T0E34 001:031 JLINK_IsHalted()  returns FALSE (0000ms, 0626ms total)
T0E34 001:032 JLINK_IsHalted()  returns FALSE (0000ms, 0626ms total)
T0E34 001:033 JLINK_IsHalted()  returns FALSE (0000ms, 0626ms total)
T0E34 001:038 JLINK_IsHalted()  returns FALSE (0000ms, 0626ms total)
T0E34 001:039 JLINK_IsHalted()  returns FALSE (0000ms, 0626ms total)
T0E34 001:040 JLINK_IsHalted()  returns FALSE (0000ms, 0626ms total)
T0E34 001:041 JLINK_IsHalted()  returns FALSE (0000ms, 0626ms total)
T0E34 001:042 JLINK_IsHalted()  returns FALSE (0000ms, 0626ms total)
T0E34 001:043 JLINK_IsHalted()  returns FALSE (0000ms, 0626ms total)
T0E34 001:044 JLINK_IsHalted()  returns FALSE (0000ms, 0626ms total)
T0E34 001:045 JLINK_IsHalted()  returns FALSE (0000ms, 0626ms total)
T0E34 001:046 JLINK_IsHalted()  returns FALSE (0000ms, 0626ms total)
T0E34 001:047 JLINK_IsHalted()  returns FALSE (0000ms, 0626ms total)
T0E34 001:048 JLINK_IsHalted()  returns FALSE (0000ms, 0626ms total)
T0E34 001:049 JLINK_IsHalted()  returns FALSE (0000ms, 0626ms total)
T0E34 001:050 JLINK_IsHalted()  returns FALSE (0000ms, 0626ms total)
T0E34 001:051 JLINK_IsHalted()  returns FALSE (0000ms, 0626ms total)
T0E34 001:057 JLINK_IsHalted()  returns FALSE (0000ms, 0626ms total)
T0E34 001:058 JLINK_IsHalted()  returns FALSE (0000ms, 0626ms total)
T0E34 001:059 JLINK_IsHalted()  returns FALSE (0000ms, 0626ms total)
T0E34 001:060 JLINK_IsHalted()  returns FALSE (0000ms, 0626ms total)
T0E34 001:061 JLINK_IsHalted()  returns FALSE (0000ms, 0626ms total)
T0E34 001:062 JLINK_IsHalted() -- CPU_ReadMem(2 bytes @ 0x20000000)  returns TRUE (0002ms, 0628ms total)
T0E34 001:064 JLINK_ReadReg(R15 (PC))  returns 0x20000000 (0000ms, 0626ms total)
T0E34 001:064 JLINK_ClrBPEx(BPHandle = 0x00000009)  returns 0x00 (0000ms, 0626ms total)
T0E34 001:064 JLINK_ReadReg(R0)  returns 0x00000000 (0000ms, 0626ms total)
T0E34 001:064 JLINK_WriteMem(0x20000260, 0x0400 Bytes, ...) -- Data:  AD F8 00 00 24 6A 30 46 04 F0 C8 FD 02 20 04 F0 ... -- CPU_WriteMem(1024 bytes @ 0x20000260)  returns 0x400 (0004ms, 0630ms total)
T0E34 001:068 JLINK_WriteReg(R0, 0x08001400)  returns 0x00 (0000ms, 0630ms total)
T0E34 001:068 JLINK_WriteReg(R1, 0x00000400)  returns 0x00 (0000ms, 0630ms total)
T0E34 001:068 JLINK_WriteReg(R2, 0x20000260)  returns 0x00 (0000ms, 0630ms total)
T0E34 001:068 JLINK_WriteReg(R3, 0x00000000)  returns 0x00 (0000ms, 0630ms total)
T0E34 001:068 JLINK_WriteReg(R4, 0x00000000)  returns 0x00 (0000ms, 0630ms total)
T0E34 001:068 JLINK_WriteReg(R5, 0x00000000)  returns 0x00 (0000ms, 0630ms total)
T0E34 001:068 JLINK_WriteReg(R6, 0x00000000)  returns 0x00 (0000ms, 0630ms total)
T0E34 001:068 JLINK_WriteReg(R7, 0x00000000)  returns 0x00 (0000ms, 0630ms total)
T0E34 001:068 JLINK_WriteReg(R8, 0x00000000)  returns 0x00 (0000ms, 0630ms total)
T0E34 001:068 JLINK_WriteReg(R9, 0x20000258)  returns 0x00 (0000ms, 0630ms total)
T0E34 001:068 JLINK_WriteReg(R10, 0x00000000)  returns 0x00 (0000ms, 0630ms total)
T0E34 001:068 JLINK_WriteReg(R11, 0x00000000)  returns 0x00 (0000ms, 0630ms total)
T0E34 001:068 JLINK_WriteReg(R12, 0x00000000)  returns 0x00 (0000ms, 0630ms total)
T0E34 001:069 JLINK_WriteReg(R13 (SP), 0x20000800)  returns 0x00 (0000ms, 0631ms total)
T0E34 001:069 JLINK_WriteReg(R14, 0x20000001)  returns 0x00 (0000ms, 0631ms total)
T0E34 001:069 JLINK_WriteReg(R15 (PC), 0x2000018C)  returns 0x00 (0000ms, 0631ms total)
T0E34 001:069 JLINK_WriteReg(XPSR, 0x01000000)  returns 0x00 (0000ms, 0631ms total)
T0E34 001:069 JLINK_WriteReg(MSP, 0x20000800)  returns 0x00 (0000ms, 0631ms total)
T0E34 001:069 JLINK_WriteReg(PSP, 0x20000800)  returns 0x00 (0000ms, 0631ms total)
T0E34 001:069 JLINK_WriteReg(CFBP, 0x00000000)  returns 0x00 (0000ms, 0631ms total)
T0E34 001:069 JLINK_SetBPEx(Addr = 0x20000000, Type = 0xFFFFFFF2)  returns 0x0000000A (0000ms, 0631ms total)
T0E34 001:069 JLINK_Go() (0001ms, 0632ms total)
T0E34 001:070 JLINK_IsHalted()  returns FALSE (0000ms, 0632ms total)
T0E34 001:074 JLINK_IsHalted()  returns FALSE (0000ms, 0632ms total)
T0E34 001:075 JLINK_IsHalted()  returns FALSE (0000ms, 0632ms total)
T0E34 001:076 JLINK_IsHalted()  returns FALSE (0000ms, 0632ms total)
T0E34 001:077 JLINK_IsHalted()  returns FALSE (0000ms, 0632ms total)
T0E34 001:078 JLINK_IsHalted()  returns FALSE (0000ms, 0632ms total)
T0E34 001:085 JLINK_IsHalted()  returns FALSE (0000ms, 0632ms total)
T0E34 001:086 JLINK_IsHalted()  returns FALSE (0000ms, 0632ms total)
T0E34 001:087 JLINK_IsHalted()  returns FALSE (0000ms, 0632ms total)
T0E34 001:088 JLINK_IsHalted()  returns FALSE (0000ms, 0632ms total)
T0E34 001:089 JLINK_IsHalted()  returns FALSE (0000ms, 0632ms total)
T0E34 001:090 JLINK_IsHalted()  returns FALSE (0000ms, 0632ms total)
T0E34 001:091 JLINK_IsHalted()  returns FALSE (0000ms, 0632ms total)
T0E34 001:092 JLINK_IsHalted()  returns FALSE (0000ms, 0632ms total)
T0E34 001:093 JLINK_IsHalted()  returns FALSE (0000ms, 0632ms total)
T0E34 001:094 JLINK_IsHalted()  returns FALSE (0000ms, 0632ms total)
T0E34 001:095 JLINK_IsHalted()  returns FALSE (0000ms, 0632ms total)
T0E34 001:096 JLINK_IsHalted()  returns FALSE (0000ms, 0632ms total)
T0E34 001:101 JLINK_IsHalted() -- CPU_ReadMem(2 bytes @ 0x20000000)  returns TRUE (0002ms, 0634ms total)
T0E34 001:103 JLINK_ReadReg(R15 (PC))  returns 0x20000000 (0000ms, 0632ms total)
T0E34 001:103 JLINK_ClrBPEx(BPHandle = 0x0000000A)  returns 0x00 (0000ms, 0632ms total)
T0E34 001:103 JLINK_ReadReg(R0)  returns 0x00000000 (0000ms, 0632ms total)
T0E34 001:103 JLINK_WriteMem(0x20000260, 0x0400 Bytes, ...) -- Data:  01 21 01 90 15 48 02 F0 5B FF 15 49 08 60 08 46 ... -- CPU_WriteMem(1024 bytes @ 0x20000260)  returns 0x400 (0005ms, 0637ms total)
T0E34 001:108 JLINK_WriteReg(R0, 0x08001800)  returns 0x00 (0000ms, 0637ms total)
T0E34 001:108 JLINK_WriteReg(R1, 0x00000400)  returns 0x00 (0000ms, 0637ms total)
T0E34 001:108 JLINK_WriteReg(R2, 0x20000260)  returns 0x00 (0000ms, 0637ms total)
T0E34 001:108 JLINK_WriteReg(R3, 0x00000000)  returns 0x00 (0000ms, 0637ms total)
T0E34 001:108 JLINK_WriteReg(R4, 0x00000000)  returns 0x00 (0000ms, 0637ms total)
T0E34 001:108 JLINK_WriteReg(R5, 0x00000000)  returns 0x00 (0000ms, 0637ms total)
T0E34 001:108 JLINK_WriteReg(R6, 0x00000000)  returns 0x00 (0000ms, 0637ms total)
T0E34 001:108 JLINK_WriteReg(R7, 0x00000000)  returns 0x00 (0000ms, 0637ms total)
T0E34 001:108 JLINK_WriteReg(R8, 0x00000000)  returns 0x00 (0000ms, 0637ms total)
T0E34 001:108 JLINK_WriteReg(R9, 0x20000258)  returns 0x00 (0000ms, 0637ms total)
T0E34 001:108 JLINK_WriteReg(R10, 0x00000000)  returns 0x00 (0000ms, 0637ms total)
T0E34 001:108 JLINK_WriteReg(R11, 0x00000000)  returns 0x00 (0000ms, 0637ms total)
T0E34 001:108 JLINK_WriteReg(R12, 0x00000000)  returns 0x00 (0000ms, 0637ms total)
T0E34 001:108 JLINK_WriteReg(R13 (SP), 0x20000800)  returns 0x00 (0000ms, 0637ms total)
T0E34 001:108 JLINK_WriteReg(R14, 0x20000001)  returns 0x00 (0000ms, 0637ms total)
T0E34 001:108 JLINK_WriteReg(R15 (PC), 0x2000018C)  returns 0x00 (0000ms, 0637ms total)
T0E34 001:108 JLINK_WriteReg(XPSR, 0x01000000)  returns 0x00 (0000ms, 0637ms total)
T0E34 001:108 JLINK_WriteReg(MSP, 0x20000800)  returns 0x00 (0000ms, 0637ms total)
T0E34 001:108 JLINK_WriteReg(PSP, 0x20000800)  returns 0x00 (0000ms, 0637ms total)
T0E34 001:108 JLINK_WriteReg(CFBP, 0x00000000)  returns 0x00 (0000ms, 0637ms total)
T0E34 001:108 JLINK_SetBPEx(Addr = 0x20000000, Type = 0xFFFFFFF2)  returns 0x0000000B (0000ms, 0637ms total)
T0E34 001:108 JLINK_Go() (0001ms, 0638ms total)
T0E34 001:110 JLINK_IsHalted()  returns FALSE (0000ms, 0639ms total)
T0E34 001:114 JLINK_IsHalted()  returns FALSE (0000ms, 0639ms total)
T0E34 001:115 JLINK_IsHalted()  returns FALSE (0000ms, 0639ms total)
T0E34 001:116 JLINK_IsHalted()  returns FALSE (0000ms, 0639ms total)
T0E34 001:117 JLINK_IsHalted()  returns FALSE (0000ms, 0639ms total)
T0E34 001:118 JLINK_IsHalted()  returns FALSE (0000ms, 0639ms total)
T0E34 001:119 JLINK_IsHalted()  returns FALSE (0000ms, 0639ms total)
T0E34 001:120 JLINK_IsHalted()  returns FALSE (0000ms, 0639ms total)
T0E34 001:121 JLINK_IsHalted()  returns FALSE (0000ms, 0639ms total)
T0E34 001:122 JLINK_IsHalted()  returns FALSE (0000ms, 0639ms total)
T0E34 001:123 JLINK_IsHalted()  returns FALSE (0000ms, 0639ms total)
T0E34 001:124 JLINK_IsHalted()  returns FALSE (0000ms, 0639ms total)
T0E34 001:125 JLINK_IsHalted()  returns FALSE (0000ms, 0639ms total)
T0E34 001:126 JLINK_IsHalted()  returns FALSE (0000ms, 0639ms total)
T0E34 001:131 JLINK_IsHalted()  returns FALSE (0000ms, 0639ms total)
T0E34 001:132 JLINK_IsHalted()  returns FALSE (0000ms, 0639ms total)
T0E34 001:133 JLINK_IsHalted()  returns FALSE (0000ms, 0639ms total)
T0E34 001:134 JLINK_IsHalted()  returns FALSE (0000ms, 0639ms total)
T0E34 001:135 JLINK_IsHalted()  returns FALSE (0000ms, 0639ms total)
T0E34 001:136 JLINK_IsHalted()  returns FALSE (0000ms, 0639ms total)
T0E34 001:137 JLINK_IsHalted()  returns FALSE (0000ms, 0639ms total)
T0E34 001:138 JLINK_IsHalted()  returns FALSE (0000ms, 0639ms total)
T0E34 001:139 JLINK_IsHalted()  returns FALSE (0000ms, 0639ms total)
T0E34 001:140 JLINK_IsHalted()  returns FALSE (0000ms, 0639ms total)
T0E34 001:141 JLINK_IsHalted() -- CPU_ReadMem(2 bytes @ 0x20000000)  returns TRUE (0002ms, 0641ms total)
T0E34 001:143 JLINK_ReadReg(R15 (PC))  returns 0x20000000 (0000ms, 0639ms total)
T0E34 001:143 JLINK_ClrBPEx(BPHandle = 0x0000000B)  returns 0x00 (0000ms, 0639ms total)
T0E34 001:143 JLINK_ReadReg(R0)  returns 0x00000000 (0000ms, 0639ms total)
T0E34 001:143 JLINK_WriteMem(0x20000260, 0x0400 Bytes, ...) -- Data:  29 46 30 46 02 F0 F0 FF 4F F4 B4 70 00 21 51 23 ... -- CPU_WriteMem(1024 bytes @ 0x20000260)  returns 0x400 (0004ms, 0643ms total)
T0E34 001:147 JLINK_WriteReg(R0, 0x08001C00)  returns 0x00 (0000ms, 0643ms total)
T0E34 001:147 JLINK_WriteReg(R1, 0x00000400)  returns 0x00 (0000ms, 0643ms total)
T0E34 001:147 JLINK_WriteReg(R2, 0x20000260)  returns 0x00 (0000ms, 0643ms total)
T0E34 001:147 JLINK_WriteReg(R3, 0x00000000)  returns 0x00 (0000ms, 0643ms total)
T0E34 001:147 JLINK_WriteReg(R4, 0x00000000)  returns 0x00 (0001ms, 0644ms total)
T0E34 001:148 JLINK_WriteReg(R5, 0x00000000)  returns 0x00 (0000ms, 0644ms total)
T0E34 001:148 JLINK_WriteReg(R6, 0x00000000)  returns 0x00 (0000ms, 0644ms total)
T0E34 001:148 JLINK_WriteReg(R7, 0x00000000)  returns 0x00 (0000ms, 0644ms total)
T0E34 001:148 JLINK_WriteReg(R8, 0x00000000)  returns 0x00 (0000ms, 0644ms total)
T0E34 001:148 JLINK_WriteReg(R9, 0x20000258)  returns 0x00 (0000ms, 0644ms total)
T0E34 001:148 JLINK_WriteReg(R10, 0x00000000)  returns 0x00 (0000ms, 0644ms total)
T0E34 001:148 JLINK_WriteReg(R11, 0x00000000)  returns 0x00 (0000ms, 0644ms total)
T0E34 001:148 JLINK_WriteReg(R12, 0x00000000)  returns 0x00 (0000ms, 0644ms total)
T0E34 001:148 JLINK_WriteReg(R13 (SP), 0x20000800)  returns 0x00 (0000ms, 0644ms total)
T0E34 001:148 JLINK_WriteReg(R14, 0x20000001)  returns 0x00 (0000ms, 0644ms total)
T0E34 001:148 JLINK_WriteReg(R15 (PC), 0x2000018C)  returns 0x00 (0000ms, 0644ms total)
T0E34 001:148 JLINK_WriteReg(XPSR, 0x01000000)  returns 0x00 (0000ms, 0644ms total)
T0E34 001:148 JLINK_WriteReg(MSP, 0x20000800)  returns 0x00 (0000ms, 0644ms total)
T0E34 001:148 JLINK_WriteReg(PSP, 0x20000800)  returns 0x00 (0000ms, 0644ms total)
T0E34 001:148 JLINK_WriteReg(CFBP, 0x00000000)  returns 0x00 (0000ms, 0644ms total)
T0E34 001:148 JLINK_SetBPEx(Addr = 0x20000000, Type = 0xFFFFFFF2)  returns 0x0000000C (0000ms, 0644ms total)
T0E34 001:148 JLINK_Go() (0001ms, 0645ms total)
T0E34 001:149 JLINK_IsHalted()  returns FALSE (0001ms, 0646ms total)
T0E34 001:154 JLINK_IsHalted()  returns FALSE (0000ms, 0645ms total)
T0E34 001:155 JLINK_IsHalted()  returns FALSE (0000ms, 0645ms total)
T0E34 001:156 JLINK_IsHalted()  returns FALSE (0000ms, 0645ms total)
T0E34 001:157 JLINK_IsHalted()  returns FALSE (0000ms, 0645ms total)
T0E34 001:163 JLINK_IsHalted()  returns FALSE (0000ms, 0645ms total)
T0E34 001:164 JLINK_IsHalted()  returns FALSE (0000ms, 0645ms total)
T0E34 001:165 JLINK_IsHalted()  returns FALSE (0000ms, 0645ms total)
T0E34 001:166 JLINK_IsHalted()  returns FALSE (0000ms, 0645ms total)
T0E34 001:167 JLINK_IsHalted()  returns FALSE (0000ms, 0645ms total)
T0E34 001:168 JLINK_IsHalted()  returns FALSE (0000ms, 0645ms total)
T0E34 001:169 JLINK_IsHalted()  returns FALSE (0000ms, 0645ms total)
T0E34 001:170 JLINK_IsHalted()  returns FALSE (0000ms, 0645ms total)
T0E34 001:171 JLINK_IsHalted()  returns FALSE (0000ms, 0645ms total)
T0E34 001:172 JLINK_IsHalted()  returns FALSE (0000ms, 0645ms total)
T0E34 001:176 JLINK_IsHalted()  returns FALSE (0000ms, 0645ms total)
T0E34 001:177 JLINK_IsHalted()  returns FALSE (0000ms, 0645ms total)
T0E34 001:178 JLINK_IsHalted()  returns FALSE (0000ms, 0645ms total)
T0E34 001:179 JLINK_IsHalted()  returns FALSE (0000ms, 0645ms total)
T0E34 001:180 JLINK_IsHalted()  returns FALSE (0000ms, 0645ms total)
T0E34 001:181 JLINK_IsHalted() -- CPU_ReadMem(2 bytes @ 0x20000000)  returns TRUE (0002ms, 0647ms total)
T0E34 001:183 JLINK_ReadReg(R15 (PC))  returns 0x20000000 (0000ms, 0645ms total)
T0E34 001:183 JLINK_ClrBPEx(BPHandle = 0x0000000C)  returns 0x00 (0000ms, 0645ms total)
T0E34 001:183 JLINK_ReadReg(R0)  returns 0x00000000 (0000ms, 0645ms total)
T0E34 001:183 JLINK_WriteMem(0x20000260, 0x0400 Bytes, ...) -- Data:  48 46 00 F0 21 FA 68 46 02 F0 34 F9 48 46 08 F0 ... -- CPU_WriteMem(1024 bytes @ 0x20000260)  returns 0x400 (0004ms, 0649ms total)
T0E34 001:188 JLINK_WriteReg(R0, 0x08002000)  returns 0x00 (0000ms, 0649ms total)
T0E34 001:188 JLINK_WriteReg(R1, 0x00000400)  returns 0x00 (0000ms, 0649ms total)
T0E34 001:188 JLINK_WriteReg(R2, 0x20000260)  returns 0x00 (0000ms, 0649ms total)
T0E34 001:188 JLINK_WriteReg(R3, 0x00000000)  returns 0x00 (0000ms, 0649ms total)
T0E34 001:188 JLINK_WriteReg(R4, 0x00000000)  returns 0x00 (0000ms, 0649ms total)
T0E34 001:188 JLINK_WriteReg(R5, 0x00000000)  returns 0x00 (0000ms, 0649ms total)
T0E34 001:188 JLINK_WriteReg(R6, 0x00000000)  returns 0x00 (0000ms, 0649ms total)
T0E34 001:188 JLINK_WriteReg(R7, 0x00000000)  returns 0x00 (0000ms, 0649ms total)
T0E34 001:188 JLINK_WriteReg(R8, 0x00000000)  returns 0x00 (0000ms, 0649ms total)
T0E34 001:188 JLINK_WriteReg(R9, 0x20000258)  returns 0x00 (0000ms, 0649ms total)
T0E34 001:188 JLINK_WriteReg(R10, 0x00000000)  returns 0x00 (0000ms, 0649ms total)
T0E34 001:188 JLINK_WriteReg(R11, 0x00000000)  returns 0x00 (0000ms, 0649ms total)
T0E34 001:188 JLINK_WriteReg(R12, 0x00000000)  returns 0x00 (0000ms, 0649ms total)
T0E34 001:188 JLINK_WriteReg(R13 (SP), 0x20000800)  returns 0x00 (0000ms, 0649ms total)
T0E34 001:188 JLINK_WriteReg(R14, 0x20000001)  returns 0x00 (0000ms, 0649ms total)
T0E34 001:188 JLINK_WriteReg(R15 (PC), 0x2000018C)  returns 0x00 (0000ms, 0649ms total)
T0E34 001:188 JLINK_WriteReg(XPSR, 0x01000000)  returns 0x00 (0000ms, 0649ms total)
T0E34 001:188 JLINK_WriteReg(MSP, 0x20000800)  returns 0x00 (0000ms, 0649ms total)
T0E34 001:188 JLINK_WriteReg(PSP, 0x20000800)  returns 0x00 (0000ms, 0649ms total)
T0E34 001:188 JLINK_WriteReg(CFBP, 0x00000000)  returns 0x00 (0000ms, 0649ms total)
T0E34 001:188 JLINK_SetBPEx(Addr = 0x20000000, Type = 0xFFFFFFF2)  returns 0x0000000D (0000ms, 0649ms total)
T0E34 001:188 JLINK_Go() (0001ms, 0650ms total)
T0E34 001:189 JLINK_IsHalted()  returns FALSE (0001ms, 0651ms total)
T0E34 001:194 JLINK_IsHalted()  returns FALSE (0000ms, 0650ms total)
T0E34 001:195 JLINK_IsHalted()  returns FALSE (0000ms, 0650ms total)
T0E34 001:196 JLINK_IsHalted()  returns FALSE (0000ms, 0650ms total)
T0E34 001:197 JLINK_IsHalted()  returns FALSE (0000ms, 0650ms total)
T0E34 001:198 JLINK_IsHalted()  returns FALSE (0000ms, 0650ms total)
T0E34 001:199 JLINK_IsHalted()  returns FALSE (0000ms, 0650ms total)
T0E34 001:200 JLINK_IsHalted()  returns FALSE (0000ms, 0650ms total)
T0E34 001:201 JLINK_IsHalted()  returns FALSE (0000ms, 0650ms total)
T0E34 001:202 JLINK_IsHalted()  returns FALSE (0000ms, 0650ms total)
T0E34 001:203 JLINK_IsHalted()  returns FALSE (0000ms, 0650ms total)
T0E34 001:207 JLINK_IsHalted()  returns FALSE (0000ms, 0650ms total)
T0E34 001:208 JLINK_IsHalted()  returns FALSE (0000ms, 0650ms total)
T0E34 001:209 JLINK_IsHalted()  returns FALSE (0000ms, 0650ms total)
T0E34 001:210 JLINK_IsHalted()  returns FALSE (0000ms, 0650ms total)
T0E34 001:211 JLINK_IsHalted()  returns FALSE (0000ms, 0650ms total)
T0E34 001:212 JLINK_IsHalted()  returns FALSE (0000ms, 0650ms total)
T0E34 001:213 JLINK_IsHalted()  returns FALSE (0000ms, 0650ms total)
T0E34 001:214 JLINK_IsHalted()  returns FALSE (0000ms, 0650ms total)
T0E34 001:215 JLINK_IsHalted()  returns FALSE (0000ms, 0650ms total)
T0E34 001:216 JLINK_IsHalted()  returns FALSE (0000ms, 0650ms total)
T0E34 001:217 JLINK_IsHalted()  returns FALSE (0000ms, 0650ms total)
T0E34 001:218 JLINK_IsHalted()  returns FALSE (0000ms, 0650ms total)
T0E34 001:219 JLINK_IsHalted()  returns FALSE (0000ms, 0650ms total)
T0E34 001:223 JLINK_IsHalted() -- CPU_ReadMem(2 bytes @ 0x20000000)  returns TRUE (0002ms, 0652ms total)
T0E34 001:225 JLINK_ReadReg(R15 (PC))  returns 0x20000000 (0000ms, 0650ms total)
